
T2494 000:003 SEGGER J-Link V6.16c Log File (0001ms, 0004ms total)
T2494 000:003 DLL Compiled: Jun 16 2017 18:14:49 (0001ms, 0004ms total)
T2494 000:003 Logging started @ 2019-07-01 12:04 (0001ms, 0004ms total)
T2494 000:004 JLINK_SetWarnOutHandler(...) (0000ms, 0004ms total)
T2494 000:004 JLINK_OpenEx(...)
Firmware: J-Link V9 compiled Feb 16 2018 13:04:36
Hardware: V9.60
S/N: 59600179
Feature(s): RDI, GDB, FlashDL, FlashBP, JFlashWEBSRV Webserver running on local port 19080 (0027ms, 0031ms total)
T2494 000:004   returns O.K. (0027ms, 0031ms total)
T2494 000:031 JLINK_GetEmuCaps()  returns 0xB9FF7BBF (0000ms, 0031ms total)
T2494 000:031 JLINK_TIF_GetAvailable(...) (0001ms, 0032ms total)
T2494 000:032 JLINK_SetErrorOutHandler(...) (0000ms, 0032ms total)
T2494 000:032 JLINK_ExecCommand("ProjectFile = "D:\Cryo\code\project\JLinkSettings.ini"", ...).   returns 0x00 (0083ms, 0115ms total)
T2494 000:117 JLINK_ExecCommand("Device = STM32F103C8", ...). Device "STM32F103C8" selected.  returns 0x00 (0002ms, 0117ms total)
T2494 000:119 JLINK_ExecCommand("DisableConnectionTimeout", ...).   returns 0x01 (0000ms, 0117ms total)
T2494 000:119 JLINK_GetHardwareVersion()  returns 0x17700 (0000ms, 0117ms total)
T2494 000:119 JLINK_GetDLLVersion()  returns 61603 (0000ms, 0117ms total)
T2494 000:119 JLINK_GetFirmwareString(...) (0000ms, 0117ms total)
T2494 000:122 JLINK_GetDLLVersion()  returns 61603 (0001ms, 0118ms total)
T2494 000:123 JLINK_GetCompileDateTime() (0000ms, 0118ms total)
T2494 000:124 JLINK_GetFirmwareString(...) (0000ms, 0118ms total)
T2494 000:125 JLINK_GetHardwareVersion()  returns 0x17700 (0000ms, 0118ms total)
T2494 000:130 JLINK_TIF_Select(JLINKARM_TIF_SWD)  returns 0x00 (0004ms, 0122ms total)
T2494 000:134 JLINK_SetSpeed(2000) (0001ms, 0123ms total)
T2494 000:135 JLINK_GetId() >0x10B TIF>Found SW-DP with ID 0x1BA01477 >0x0D TIF> >0x28 TIF> >0x0D TIF> >0x28 TIF> >0x0D TIF> >0x28 TIF> >0x0D TIF> >0x28 TIF> >0x0D TIF> >0x21 TIF> >0x0D TIF> >0x28 TIF> >0x0D TIF> >0x28 TIF> >0x0D TIF> >0x28 TIF> >0x0D TIF> >0x21 TIF> >0x0D TIF> >0x21 TIF> >0x0D TIF> >0x28 TIF> >0x0D TIF> >0x21 TIF> >0x0D TIF> >0x21 TIF> >0x0D TIF> >0x28 TIF> >0x0D TIF> >0x21 TIF> >0x0D TIF> >0x21 TIF> >0x0D TIF> >0x28 TIF> >0x0D TIF> >0x21 TIF> >0x0D TIF> >0x21 TIF> >0x0D TIF> >0x28 TIF>
 >0x0D TIF> >0x21 TIF> >0x0D TIF> >0x21 TIF> >0x0D TIF> >0x28 TIF> >0x0D TIF> >0x21 TIF> >0x0D TIF> >0x21 TIF> >0x0D TIF> >0x28 TIF> >0x0D TIF> >0x21 TIF> >0x0D TIF> >0x21 TIF> >0x10B TIF>Found SW-DP with ID 0x1BA01477 >0x0D TIF> >0x28 TIF> >0x0D TIF> >0x28 TIF> >0x0D TIF> >0x28 TIF> >0x0D TIF> >0x28 TIF> >0x0D TIF> >0x21 TIF> >0x0D TIF> >0x28 TIF>Scanning APs, stopping at first AHB-AP found. >0x0D TIF> >0x28 TIF> >0x0D TIF> >0x21 TIF> >0x0D TIF> >0x21 TIF>AP[0] IDR: 0x14770011 (AHB-AP) >0x0D TIF>
 >0x28 TIF> >0x0D TIF> >0x21 TIF> >0x0D TIF> >0x21 TIF>AHB-AP ROM: 0xE00FF000 (Base addr. of first ROM table) >0x0D TIF> >0x28 TIF> >0x0D TIF> >0x28 TIF> >0x0D TIF> >0x28 TIF> >0x0D TIF> >0x21 TIF> >0x0D TIF> >0x21 TIF> >0x0D TIF> >0x28 TIF> >0x0D TIF> >0x21 TIF> >0x0D TIF> >0x21 TIF>CPUID reg: 0x411FC231. Implementer code: 0x41 (ARM)Found Cortex-M3 r1p1, Little endian. -- CPU_ReadMem(4 bytes @ 0xE000EDF0) -- CPU_ReadMem(4 bytes @ 0xE0002000)FPUnit: 6 code (BP) slots and 2 literal slots
 -- CPU_ReadMem(4 bytes @ 0xE000EDFC) -- CPU_ReadMem(4 bytes @ 0xE0001000) -- CPU_WriteMem(4 bytes @ 0xE0001000) -- CPU_ReadMem(4 bytes @ 0xE000ED88) -- CPU_WriteMem(4 bytes @ 0xE000ED88) -- CPU_ReadMem(4 bytes @ 0xE000ED88) -- CPU_WriteMem(4 bytes @ 0xE000ED88)CoreSight components:ROMTbl[0] @ E00FF000 -- CPU_ReadMem(16 bytes @ 0xE00FF000) -- CPU_ReadMem(16 bytes @ 0xE000EFF0) -- CPU_ReadMem(16 bytes @ 0xE000EFE0)ROMTbl[0][0]: E000E000, CID: B105E00D, PID: 001BB000 SCS
 -- CPU_ReadMem(16 bytes @ 0xE0001FF0) -- CPU_ReadMem(16 bytes @ 0xE0001FE0)ROMTbl[0][1]: E0001000, CID: B105E00D, PID: 001BB002 DWT -- CPU_ReadMem(16 bytes @ 0xE0002FF0) -- CPU_ReadMem(16 bytes @ 0xE0002FE0)ROMTbl[0][2]: E0002000, CID: B105E00D, PID: 000BB003 FPB -- CPU_ReadMem(16 bytes @ 0xE0000FF0) -- CPU_ReadMem(16 bytes @ 0xE0000FE0)ROMTbl[0][3]: E0000000, CID: B105E00D, PID: 001BB001 ITM -- CPU_ReadMem(16 bytes @ 0xE00FF010) -- CPU_ReadMem(16 bytes @ 0xE0040FF0)
 -- CPU_ReadMem(16 bytes @ 0xE0040FE0)ROMTbl[0][4]: E0040000, CID: B105900D, PID: 001BB923 TPIU-Lite >0x0D TIF> >0x21 TIF>  returns 0x1BA01477 (0152ms, 0275ms total)
T2494 000:287 JLINK_GetDLLVersion()  returns 61603 (0000ms, 0275ms total)
T2494 000:287 JLINK_CORE_GetFound()  returns 0x30000FF (0000ms, 0275ms total)
T2494 000:287 JLINK_GetDebugInfo(0x100 = JLINKARM_ROM_TABLE_ADDR_INDEX) -- Value=0xE00FF000  returns 0x00 (0000ms, 0275ms total)
T2494 000:288 JLINK_GetDebugInfo(0x100 = JLINKARM_ROM_TABLE_ADDR_INDEX) -- Value=0xE00FF000  returns 0x00 (0000ms, 0275ms total)
T2494 000:288 JLINK_GetDebugInfo(0x101 = JLINKARM_DEBUG_INFO_ETM_ADDR_INDEX) -- Value=0x00000000  returns 0x00 (0000ms, 0275ms total)
T2494 000:288 JLINK_ReadMemEx(0xE0041FF0, 0x0010 Bytes, ..., Flags = 0x02000004) -- CPU_ReadMem(16 bytes @ 0xE0041FF0) - Data: 00 00 00 00 00 00 00 00 00 00 00 00 00 00 00 00  returns 0x10 (0002ms, 0277ms total)
T2494 000:290 JLINK_GetDebugInfo(0x102 = JLINKARM_DEBUG_INFO_MTB_ADDR_INDEX) -- Value=0x00000000  returns 0x00 (0000ms, 0277ms total)
T2494 000:290 JLINK_GetDebugInfo(0x103 = JLINKARM_DEBUG_INFO_TPIU_ADDR_INDEX) -- Value=0xE0040000  returns 0x00 (0000ms, 0277ms total)
T2494 000:290 JLINK_GetDebugInfo(0x104 = JLINKARM_DEBUG_INFO_ITM_ADDR_INDEX) -- Value=0xE0000000  returns 0x00 (0000ms, 0277ms total)
T2494 000:290 JLINK_GetDebugInfo(0x105 = JLINKARM_DEBUG_INFO_DWT_ADDR_INDEX) -- Value=0xE0001000  returns 0x00 (0000ms, 0277ms total)
T2494 000:290 JLINK_GetDebugInfo(0x106 = JLINKARM_DEBUG_INFO_FPB_ADDR_INDEX) -- Value=0xE0002000  returns 0x00 (0000ms, 0277ms total)
T2494 000:290 JLINK_GetDebugInfo(0x107 = JLINKARM_DEBUG_INFO_NVIC_ADDR_INDEX) -- Value=0xE000E000  returns 0x00 (0000ms, 0277ms total)
T2494 000:290 JLINK_GetDebugInfo(0x10C = JLINKARM_DEBUG_INFO_DBG_ADDR_INDEX) -- Value=0xE000EDF0  returns 0x00 (0000ms, 0277ms total)
T2494 000:290 JLINK_ReadMemU32(0xE000ED00, 0x0001 Items, ...) -- CPU_ReadMem(4 bytes @ 0xE000ED00) - Data: 31 C2 1F 41  returns 0x01 (0001ms, 0278ms total)
T2494 000:291 JLINK_GetDebugInfo(0x10F = JLINKARM_DEBUG_INFO_HAS_CORTEX_M_SECURITY_EXT_INDEX) -- Value=0x00000000  returns 0x00 (0000ms, 0278ms total)
T2494 000:291 JLINK_SetResetType(JLINKARM_CM3_RESET_TYPE_NORMAL)  returns JLINKARM_CM3_RESET_TYPE_NORMAL (0000ms, 0278ms total)
T2494 000:291 JLINK_Reset() -- CPU is running -- CPU_WriteMem(4 bytes @ 0xE000EDF0) -- CPU is running -- CPU_WriteMem(4 bytes @ 0xE000EDFC) >0x35 TIF>Setting AIRCR.SYSRESETREQ -- CPU is running -- CPU_WriteMem(4 bytes @ 0xE000ED0C) >0x0D TIF> >0x28 TIF> -- CPU_ReadMem(4 bytes @ 0xE000ED0C) -- CPU_ReadMem(4 bytes @ 0xE000EDF0) -- CPU_ReadMem(4 bytes @ 0xE000EDF0) -- CPU_ReadMem(4 bytes @ 0xE000EDF0) -- CPU is running -- CPU_WriteMem(4 bytes @ 0xE000EDF0) -- CPU is running
 -- CPU_WriteMem(4 bytes @ 0xE000EDFC) -- CPU_ReadMem(4 bytes @ 0xE000EDF0) -- CPU_WriteMem(4 bytes @ 0xE0002000) -- CPU_ReadMem(4 bytes @ 0xE000EDFC) -- CPU_ReadMem(4 bytes @ 0xE0001000) (0077ms, 0355ms total)
T2494 000:368 JLINK_Halt()  returns 0x00 (0000ms, 0355ms total)
T2494 000:368 JLINK_ReadMemU32(0xE000EDF0, 0x0001 Items, ...) -- CPU_ReadMem(4 bytes @ 0xE000EDF0) - Data: 03 00 03 00  returns 0x01 (0001ms, 0356ms total)
T2494 000:369 JLINK_WriteU32(0xE000EDF0, 0xA05F0003) -- CPU_WriteMem(4 bytes @ 0xE000EDF0)  returns 0x00 (0001ms, 0357ms total)
T2494 000:370 JLINK_WriteU32(0xE000EDFC, 0x01000000) -- CPU_WriteMem(4 bytes @ 0xE000EDFC)  returns 0x00 (0001ms, 0358ms total)
T2494 000:376 JLINK_GetHWStatus(...)  returns 0x00 (0001ms, 0359ms total)
T2494 000:381 JLINK_GetNumBPUnits(Type = 0xFFFFFF00)  returns 0x06 (0000ms, 0359ms total)
T2494 000:381 JLINK_GetNumBPUnits(Type = 0xF0)  returns 0x2000 (0000ms, 0359ms total)
T2494 000:381 JLINK_GetNumWPUnits()  returns 0x04 (0000ms, 0359ms total)
T2494 000:384 JLINK_GetSpeed()  returns 0x7D0 (0000ms, 0359ms total)
T2494 000:386 JLINK_ReadMemU32(0xE000E004, 0x0001 Items, ...) -- CPU_ReadMem(4 bytes @ 0xE000E004) - Data: 01 00 00 00  returns 0x01 (0001ms, 0360ms total)
T2494 000:387 JLINK_ReadMemU32(0xE000E004, 0x0001 Items, ...) -- CPU_ReadMem(4 bytes @ 0xE000E004) - Data: 01 00 00 00  returns 0x01 (0001ms, 0361ms total)
T2494 000:388 JLINK_WriteMemEx(0xE0001000, 0x001C Bytes, ..., Flags = 0x02000004) - Data: 01 00 00 00 00 00 00 00 00 00 00 00 00 00 00 00 ... -- CPU_WriteMem(28 bytes @ 0xE0001000)  returns 0x1C (0001ms, 0362ms total)
T2494 000:389 JLINK_Halt()  returns 0x00 (0000ms, 0362ms total)
T2494 000:389 JLINK_IsHalted()  returns TRUE (0000ms, 0362ms total)
T2494 000:391 JLINK_WriteMem(0x20000000, 0x0164 Bytes, ...) - Data: 00 BE 0A E0 0D 78 2D 06 68 40 08 24 40 00 00 D3 ... -- CPU_WriteMem(356 bytes @ 0x20000000)  returns 0x164 (0003ms, 0365ms total)
T2494 000:394 JLINK_WriteReg(R0, 0x08000000)  returns 0x00 (0000ms, 0365ms total)
T2494 000:394 JLINK_WriteReg(R1, 0x044AA200)  returns 0x00 (0000ms, 0365ms total)
T2494 000:394 JLINK_WriteReg(R2, 0x00000001)  returns 0x00 (0000ms, 0365ms total)
T2494 000:394 JLINK_WriteReg(R3, 0x00000000)  returns 0x00 (0000ms, 0365ms total)
T2494 000:394 JLINK_WriteReg(R4, 0x00000000)  returns 0x00 (0000ms, 0365ms total)
T2494 000:394 JLINK_WriteReg(R5, 0x00000000)  returns 0x00 (0000ms, 0365ms total)
T2494 000:394 JLINK_WriteReg(R6, 0x00000000)  returns 0x00 (0000ms, 0365ms total)
T2494 000:394 JLINK_WriteReg(R7, 0x00000000)  returns 0x00 (0000ms, 0365ms total)
T2494 000:394 JLINK_WriteReg(R8, 0x00000000)  returns 0x00 (0000ms, 0365ms total)
T2494 000:394 JLINK_WriteReg(R9, 0x20000160)  returns 0x00 (0000ms, 0365ms total)
T2494 000:394 JLINK_WriteReg(R10, 0x00000000)  returns 0x00 (0000ms, 0365ms total)
T2494 000:394 JLINK_WriteReg(R11, 0x00000000)  returns 0x00 (0000ms, 0365ms total)
T2494 000:394 JLINK_WriteReg(R12, 0x00000000)  returns 0x00 (0000ms, 0365ms total)
T2494 000:394 JLINK_WriteReg(R13 (SP), 0x20001000)  returns 0x00 (0000ms, 0365ms total)
T2494 000:394 JLINK_WriteReg(R14, 0x20000001)  returns 0x00 (0000ms, 0365ms total)
T2494 000:394 JLINK_WriteReg(R15 (PC), 0x20000038)  returns 0x00 (0000ms, 0365ms total)
T2494 000:394 JLINK_WriteReg(XPSR, 0x01000000)  returns 0x00 (0000ms, 0365ms total)
T2494 000:394 JLINK_WriteReg(MSP, 0x20001000)  returns 0x00 (0000ms, 0365ms total)
T2494 000:394 JLINK_WriteReg(PSP, 0x20001000)  returns 0x00 (0000ms, 0365ms total)
T2494 000:394 JLINK_WriteReg(CFBP, 0x00000000)  returns 0x00 (0000ms, 0365ms total)
T2494 000:394 JLINK_SetBPEx(Addr = 0x20000000, Type = 0xFFFFFFF2) -- CPU_ReadMem(2 bytes @ 0x20000000)  returns 0x00000001 (0001ms, 0366ms total)
T2494 000:395 JLINK_Go() -- CPU_WriteMem(2 bytes @ 0x20000000) -- CPU_ReadMem(4 bytes @ 0xE0001000) -- CPU_WriteMem(4 bytes @ 0xE0002008) -- CPU_WriteMem(4 bytes @ 0xE000200C) -- CPU_WriteMem(4 bytes @ 0xE0002010) -- CPU_WriteMem(4 bytes @ 0xE0002014) -- CPU_WriteMem(4 bytes @ 0xE0002018) -- CPU_WriteMem(4 bytes @ 0xE000201C) -- CPU_WriteMem(4 bytes @ 0xE0001004) (0008ms, 0374ms total)
T2494 000:403 JLINK_IsHalted() -- CPU_ReadMem(2 bytes @ 0x20000000)  returns TRUE (0005ms, 0379ms total)
T2494 000:408 JLINK_ReadReg(R15 (PC))  returns 0x20000000 (0000ms, 0374ms total)
T2494 000:408 JLINK_ClrBPEx(BPHandle = 0x00000001)  returns 0x00 (0000ms, 0374ms total)
T2494 000:408 JLINK_ReadReg(R0)  returns 0x00000000 (0000ms, 0374ms total)
T2494 000:408 JLINK_WriteReg(R0, 0x08000000)  returns 0x00 (0000ms, 0374ms total)
T2494 000:408 JLINK_WriteReg(R1, 0x044AA200)  returns 0x00 (0000ms, 0374ms total)
T2494 000:408 JLINK_WriteReg(R2, 0x00000001)  returns 0x00 (0000ms, 0374ms total)
T2494 000:408 JLINK_WriteReg(R3, 0x00000000)  returns 0x00 (0001ms, 0375ms total)
T2494 000:409 JLINK_WriteReg(R4, 0x00000000)  returns 0x00 (0000ms, 0375ms total)
T2494 000:409 JLINK_WriteReg(R5, 0x00000000)  returns 0x00 (0000ms, 0375ms total)
T2494 000:409 JLINK_WriteReg(R6, 0x00000000)  returns 0x00 (0000ms, 0375ms total)
T2494 000:409 JLINK_WriteReg(R7, 0x00000000)  returns 0x00 (0000ms, 0375ms total)
T2494 000:409 JLINK_WriteReg(R8, 0x00000000)  returns 0x00 (0000ms, 0375ms total)
T2494 000:409 JLINK_WriteReg(R9, 0x20000160)  returns 0x00 (0000ms, 0375ms total)
T2494 000:409 JLINK_WriteReg(R10, 0x00000000)  returns 0x00 (0000ms, 0375ms total)
T2494 000:409 JLINK_WriteReg(R11, 0x00000000)  returns 0x00 (0000ms, 0375ms total)
T2494 000:409 JLINK_WriteReg(R12, 0x00000000)  returns 0x00 (0000ms, 0375ms total)
T2494 000:409 JLINK_WriteReg(R13 (SP), 0x20001000)  returns 0x00 (0000ms, 0375ms total)
T2494 000:409 JLINK_WriteReg(R14, 0x20000001)  returns 0x00 (0000ms, 0375ms total)
T2494 000:409 JLINK_WriteReg(R15 (PC), 0x2000007C)  returns 0x00 (0000ms, 0375ms total)
T2494 000:409 JLINK_WriteReg(XPSR, 0x01000000)  returns 0x00 (0000ms, 0375ms total)
T2494 000:409 JLINK_WriteReg(MSP, 0x20001000)  returns 0x00 (0000ms, 0375ms total)
T2494 000:409 JLINK_WriteReg(PSP, 0x20001000)  returns 0x00 (0000ms, 0375ms total)
T2494 000:409 JLINK_WriteReg(CFBP, 0x00000000)  returns 0x00 (0000ms, 0375ms total)
T2494 000:409 JLINK_SetBPEx(Addr = 0x20000000, Type = 0xFFFFFFF2)  returns 0x00000002 (0000ms, 0375ms total)
T2494 000:409 JLINK_Go() -- CPU_ReadMem(4 bytes @ 0xE0001000) (0003ms, 0378ms total)
T2494 000:412 JLINK_IsHalted()  returns FALSE (0001ms, 0379ms total)
T2494 000:459 JLINK_IsHalted() -- CPU_ReadMem(2 bytes @ 0x20000000)  returns TRUE (0005ms, 0383ms total)
T2494 000:464 JLINK_ReadReg(R15 (PC))  returns 0x20000000 (0000ms, 0378ms total)
T2494 000:464 JLINK_ClrBPEx(BPHandle = 0x00000002)  returns 0x00 (0000ms, 0378ms total)
T2494 000:464 JLINK_ReadReg(R0)  returns 0x00000000 (0000ms, 0378ms total)
T2494 000:514 JLINK_WriteReg(R0, 0x00000001)  returns 0x00 (0000ms, 0378ms total)
T2494 000:514 JLINK_WriteReg(R1, 0x044AA200)  returns 0x00 (0000ms, 0378ms total)
T2494 000:514 JLINK_WriteReg(R2, 0x00000001)  returns 0x00 (0000ms, 0378ms total)
T2494 000:514 JLINK_WriteReg(R3, 0x00000000)  returns 0x00 (0000ms, 0378ms total)
T2494 000:514 JLINK_WriteReg(R4, 0x00000000)  returns 0x00 (0000ms, 0378ms total)
T2494 000:514 JLINK_WriteReg(R5, 0x00000000)  returns 0x00 (0000ms, 0378ms total)
T2494 000:514 JLINK_WriteReg(R6, 0x00000000)  returns 0x00 (0000ms, 0378ms total)
T2494 000:514 JLINK_WriteReg(R7, 0x00000000)  returns 0x00 (0000ms, 0378ms total)
T2494 000:514 JLINK_WriteReg(R8, 0x00000000)  returns 0x00 (0000ms, 0378ms total)
T2494 000:514 JLINK_WriteReg(R9, 0x20000160)  returns 0x00 (0000ms, 0378ms total)
T2494 000:514 JLINK_WriteReg(R10, 0x00000000)  returns 0x00 (0000ms, 0378ms total)
T2494 000:514 JLINK_WriteReg(R11, 0x00000000)  returns 0x00 (0000ms, 0378ms total)
T2494 000:514 JLINK_WriteReg(R12, 0x00000000)  returns 0x00 (0000ms, 0378ms total)
T2494 000:514 JLINK_WriteReg(R13 (SP), 0x20001000)  returns 0x00 (0000ms, 0378ms total)
T2494 000:514 JLINK_WriteReg(R14, 0x20000001)  returns 0x00 (0000ms, 0378ms total)
T2494 000:514 JLINK_WriteReg(R15 (PC), 0x2000006A)  returns 0x00 (0000ms, 0378ms total)
T2494 000:514 JLINK_WriteReg(XPSR, 0x01000000)  returns 0x00 (0000ms, 0378ms total)
T2494 000:514 JLINK_WriteReg(MSP, 0x20001000)  returns 0x00 (0000ms, 0378ms total)
T2494 000:514 JLINK_WriteReg(PSP, 0x20001000)  returns 0x00 (0000ms, 0378ms total)
T2494 000:514 JLINK_WriteReg(CFBP, 0x00000000)  returns 0x00 (0000ms, 0378ms total)
T2494 000:514 JLINK_SetBPEx(Addr = 0x20000000, Type = 0xFFFFFFF2)  returns 0x00000003 (0000ms, 0378ms total)
T2494 000:514 JLINK_Go() -- CPU_ReadMem(4 bytes @ 0xE0001000) (0004ms, 0382ms total)
T2494 000:518 JLINK_IsHalted() -- CPU_ReadMem(2 bytes @ 0x20000000)  returns TRUE (0005ms, 0387ms total)
T2494 000:523 JLINK_ReadReg(R15 (PC))  returns 0x20000000 (0000ms, 0382ms total)
T2494 000:523 JLINK_ClrBPEx(BPHandle = 0x00000003)  returns 0x00 (0000ms, 0382ms total)
T2494 000:523 JLINK_ReadReg(R0)  returns 0x00000000 (0000ms, 0382ms total)
T2494 000:525 JLINK_WriteMem(0x20000000, 0x0164 Bytes, ...) - Data: 00 BE 0A E0 0D 78 2D 06 68 40 08 24 40 00 00 D3 ... -- CPU_WriteMem(356 bytes @ 0x20000000)  returns 0x164 (0003ms, 0385ms total)
T2494 000:528 JLINK_WriteReg(R0, 0x08000000)  returns 0x00 (0000ms, 0385ms total)
T2494 000:528 JLINK_WriteReg(R1, 0x044AA200)  returns 0x00 (0000ms, 0385ms total)
T2494 000:528 JLINK_WriteReg(R2, 0x00000002)  returns 0x00 (0000ms, 0385ms total)
T2494 000:528 JLINK_WriteReg(R3, 0x00000000)  returns 0x00 (0001ms, 0386ms total)
T2494 000:529 JLINK_WriteReg(R4, 0x00000000)  returns 0x00 (0000ms, 0386ms total)
T2494 000:529 JLINK_WriteReg(R5, 0x00000000)  returns 0x00 (0000ms, 0386ms total)
T2494 000:529 JLINK_WriteReg(R6, 0x00000000)  returns 0x00 (0000ms, 0386ms total)
T2494 000:529 JLINK_WriteReg(R7, 0x00000000)  returns 0x00 (0000ms, 0386ms total)
T2494 000:529 JLINK_WriteReg(R8, 0x00000000)  returns 0x00 (0000ms, 0386ms total)
T2494 000:529 JLINK_WriteReg(R9, 0x20000160)  returns 0x00 (0000ms, 0386ms total)
T2494 000:529 JLINK_WriteReg(R10, 0x00000000)  returns 0x00 (0000ms, 0386ms total)
T2494 000:529 JLINK_WriteReg(R11, 0x00000000)  returns 0x00 (0000ms, 0386ms total)
T2494 000:529 JLINK_WriteReg(R12, 0x00000000)  returns 0x00 (0000ms, 0386ms total)
T2494 000:529 JLINK_WriteReg(R13 (SP), 0x20001000)  returns 0x00 (0000ms, 0386ms total)
T2494 000:529 JLINK_WriteReg(R14, 0x20000001)  returns 0x00 (0000ms, 0386ms total)
T2494 000:529 JLINK_WriteReg(R15 (PC), 0x20000038)  returns 0x00 (0000ms, 0386ms total)
T2494 000:529 JLINK_WriteReg(XPSR, 0x01000000)  returns 0x00 (0000ms, 0386ms total)
T2494 000:529 JLINK_WriteReg(MSP, 0x20001000)  returns 0x00 (0000ms, 0386ms total)
T2494 000:529 JLINK_WriteReg(PSP, 0x20001000)  returns 0x00 (0000ms, 0386ms total)
T2494 000:529 JLINK_WriteReg(CFBP, 0x00000000)  returns 0x00 (0000ms, 0386ms total)
T2494 000:529 JLINK_SetBPEx(Addr = 0x20000000, Type = 0xFFFFFFF2) -- CPU_ReadMem(2 bytes @ 0x20000000)  returns 0x00000004 (0000ms, 0386ms total)
T2494 000:529 JLINK_Go() -- CPU_WriteMem(2 bytes @ 0x20000000) -- CPU_ReadMem(4 bytes @ 0xE0001000) (0004ms, 0390ms total)
T2494 000:533 JLINK_IsHalted() -- CPU_ReadMem(2 bytes @ 0x20000000)  returns TRUE (0006ms, 0396ms total)
T2494 000:539 JLINK_ReadReg(R15 (PC))  returns 0x20000000 (0000ms, 0390ms total)
T2494 000:539 JLINK_ClrBPEx(BPHandle = 0x00000004)  returns 0x00 (0000ms, 0390ms total)
T2494 000:539 JLINK_ReadReg(R0)  returns 0x00000000 (0000ms, 0390ms total)
T2494 000:539 JLINK_WriteMem(0x20000164, 0x029C Bytes, ...) - Data: 00 50 00 20 C9 22 00 08 00 F0 02 F8 00 F0 50 F8 ... -- CPU_WriteMem(668 bytes @ 0x20000164)  returns 0x29C (0005ms, 0395ms total)
T2494 000:544 JLINK_WriteMem(0x20000400, 0x0164 Bytes, ...) - Data: 2F 46 20 46 88 47 B8 42 05 46 0A D1 6C 2F 27 D0 ... -- CPU_WriteMem(356 bytes @ 0x20000400)  returns 0x164 (0003ms, 0398ms total)
T2494 000:547 JLINK_WriteReg(R0, 0x08000000)  returns 0x00 (0000ms, 0398ms total)
T2494 000:547 JLINK_WriteReg(R1, 0x00000400)  returns 0x00 (0000ms, 0398ms total)
T2494 000:547 JLINK_WriteReg(R2, 0x20000164)  returns 0x00 (0000ms, 0398ms total)
T2494 000:547 JLINK_WriteReg(R3, 0x00000000)  returns 0x00 (0000ms, 0398ms total)
T2494 000:547 JLINK_WriteReg(R4, 0x00000000)  returns 0x00 (0000ms, 0398ms total)
T2494 000:547 JLINK_WriteReg(R5, 0x00000000)  returns 0x00 (0000ms, 0398ms total)
T2494 000:547 JLINK_WriteReg(R6, 0x00000000)  returns 0x00 (0000ms, 0398ms total)
T2494 000:547 JLINK_WriteReg(R7, 0x00000000)  returns 0x00 (0000ms, 0398ms total)
T2494 000:547 JLINK_WriteReg(R8, 0x00000000)  returns 0x00 (0000ms, 0398ms total)
T2494 000:547 JLINK_WriteReg(R9, 0x20000160)  returns 0x00 (0000ms, 0398ms total)
T2494 000:547 JLINK_WriteReg(R10, 0x00000000)  returns 0x00 (0000ms, 0398ms total)
T2494 000:547 JLINK_WriteReg(R11, 0x00000000)  returns 0x00 (0000ms, 0398ms total)
T2494 000:547 JLINK_WriteReg(R12, 0x00000000)  returns 0x00 (0001ms, 0399ms total)
T2494 000:548 JLINK_WriteReg(R13 (SP), 0x20001000)  returns 0x00 (0000ms, 0399ms total)
T2494 000:548 JLINK_WriteReg(R14, 0x20000001)  returns 0x00 (0000ms, 0399ms total)
T2494 000:548 JLINK_WriteReg(R15 (PC), 0x200000F4)  returns 0x00 (0000ms, 0399ms total)
T2494 000:548 JLINK_WriteReg(XPSR, 0x01000000)  returns 0x00 (0000ms, 0399ms total)
T2494 000:548 JLINK_WriteReg(MSP, 0x20001000)  returns 0x00 (0000ms, 0399ms total)
T2494 000:548 JLINK_WriteReg(PSP, 0x20001000)  returns 0x00 (0000ms, 0399ms total)
T2494 000:548 JLINK_WriteReg(CFBP, 0x00000000)  returns 0x00 (0000ms, 0399ms total)
T2494 000:548 JLINK_SetBPEx(Addr = 0x20000000, Type = 0xFFFFFFF2)  returns 0x00000005 (0000ms, 0399ms total)
T2494 000:548 JLINK_Go() -- CPU_ReadMem(4 bytes @ 0xE0001000) (0003ms, 0402ms total)
T2494 000:551 JLINK_IsHalted()  returns FALSE (0001ms, 0403ms total)
T2494 000:559 JLINK_IsHalted()  returns FALSE (0001ms, 0403ms total)
T2494 000:561 JLINK_IsHalted()  returns FALSE (0001ms, 0403ms total)
T2494 000:563 JLINK_IsHalted()  returns FALSE (0001ms, 0403ms total)
T2494 000:565 JLINK_IsHalted()  returns FALSE (0001ms, 0403ms total)
T2494 000:567 JLINK_IsHalted()  returns FALSE (0001ms, 0403ms total)
T2494 000:569 JLINK_IsHalted()  returns FALSE (0001ms, 0403ms total)
T2494 000:571 JLINK_IsHalted()  returns FALSE (0001ms, 0403ms total)
T2494 000:573 JLINK_IsHalted()  returns FALSE (0001ms, 0403ms total)
T2494 000:575 JLINK_IsHalted()  returns FALSE (0001ms, 0403ms total)
T2494 000:577 JLINK_IsHalted()  returns FALSE (0001ms, 0403ms total)
T2494 000:579 JLINK_IsHalted()  returns FALSE (0001ms, 0403ms total)
T2494 000:581 JLINK_IsHalted()  returns FALSE (0001ms, 0403ms total)
T2494 000:583 JLINK_IsHalted() -- CPU_ReadMem(2 bytes @ 0x20000000)  returns TRUE (0005ms, 0407ms total)
T2494 000:588 JLINK_ReadReg(R15 (PC))  returns 0x20000000 (0000ms, 0402ms total)
T2494 000:588 JLINK_ClrBPEx(BPHandle = 0x00000005)  returns 0x00 (0000ms, 0402ms total)
T2494 000:588 JLINK_ReadReg(R0)  returns 0x00000000 (0000ms, 0402ms total)
T2494 000:588 JLINK_WriteMem(0x20000164, 0x029C Bytes, ...) - Data: 00 74 88 47 82 46 10 20 02 E0 08 20 00 E0 0A 20 ... -- CPU_WriteMem(668 bytes @ 0x20000164)  returns 0x29C (0005ms, 0407ms total)
T2494 000:593 JLINK_WriteMem(0x20000400, 0x0164 Bytes, ...) - Data: 20 78 30 28 01 D1 00 22 7F 1E 00 2A 09 97 84 D0 ... -- CPU_WriteMem(356 bytes @ 0x20000400)  returns 0x164 (0003ms, 0410ms total)
T2494 000:596 JLINK_WriteReg(R0, 0x08000400)  returns 0x00 (0000ms, 0410ms total)
T2494 000:596 JLINK_WriteReg(R1, 0x00000400)  returns 0x00 (0000ms, 0410ms total)
T2494 000:596 JLINK_WriteReg(R2, 0x20000164)  returns 0x00 (0000ms, 0410ms total)
T2494 000:596 JLINK_WriteReg(R3, 0x00000000)  returns 0x00 (0000ms, 0410ms total)
T2494 000:596 JLINK_WriteReg(R4, 0x00000000)  returns 0x00 (0000ms, 0410ms total)
T2494 000:596 JLINK_WriteReg(R5, 0x00000000)  returns 0x00 (0000ms, 0410ms total)
T2494 000:596 JLINK_WriteReg(R6, 0x00000000)  returns 0x00 (0000ms, 0410ms total)
T2494 000:597 JLINK_WriteReg(R7, 0x00000000)  returns 0x00 (0000ms, 0411ms total)
T2494 000:597 JLINK_WriteReg(R8, 0x00000000)  returns 0x00 (0000ms, 0411ms total)
T2494 000:597 JLINK_WriteReg(R9, 0x20000160)  returns 0x00 (0000ms, 0411ms total)
T2494 000:597 JLINK_WriteReg(R10, 0x00000000)  returns 0x00 (0000ms, 0411ms total)
T2494 000:597 JLINK_WriteReg(R11, 0x00000000)  returns 0x00 (0000ms, 0411ms total)
T2494 000:597 JLINK_WriteReg(R12, 0x00000000)  returns 0x00 (0000ms, 0411ms total)
T2494 000:597 JLINK_WriteReg(R13 (SP), 0x20001000)  returns 0x00 (0000ms, 0411ms total)
T2494 000:597 JLINK_WriteReg(R14, 0x20000001)  returns 0x00 (0000ms, 0411ms total)
T2494 000:597 JLINK_WriteReg(R15 (PC), 0x200000F4)  returns 0x00 (0000ms, 0411ms total)
T2494 000:597 JLINK_WriteReg(XPSR, 0x01000000)  returns 0x00 (0000ms, 0411ms total)
T2494 000:597 JLINK_WriteReg(MSP, 0x20001000)  returns 0x00 (0000ms, 0411ms total)
T2494 000:597 JLINK_WriteReg(PSP, 0x20001000)  returns 0x00 (0000ms, 0411ms total)
T2494 000:597 JLINK_WriteReg(CFBP, 0x00000000)  returns 0x00 (0000ms, 0411ms total)
T2494 000:597 JLINK_SetBPEx(Addr = 0x20000000, Type = 0xFFFFFFF2)  returns 0x00000006 (0000ms, 0411ms total)
T2494 000:597 JLINK_Go() -- CPU_ReadMem(4 bytes @ 0xE0001000) (0003ms, 0414ms total)
T2494 000:600 JLINK_IsHalted()  returns FALSE (0001ms, 0415ms total)
T2494 000:602 JLINK_IsHalted()  returns FALSE (0000ms, 0414ms total)
T2494 000:603 JLINK_IsHalted()  returns FALSE (0000ms, 0414ms total)
T2494 000:604 JLINK_IsHalted()  returns FALSE (0000ms, 0414ms total)
T2494 000:605 JLINK_IsHalted()  returns FALSE (0000ms, 0414ms total)
T2494 000:608 JLINK_IsHalted()  returns FALSE (0001ms, 0415ms total)
T2494 000:610 JLINK_IsHalted()  returns FALSE (0001ms, 0415ms total)
T2494 000:612 JLINK_IsHalted()  returns FALSE (0001ms, 0415ms total)
T2494 000:614 JLINK_IsHalted()  returns FALSE (0001ms, 0415ms total)
T2494 000:616 JLINK_IsHalted()  returns FALSE (0001ms, 0415ms total)
T2494 000:618 JLINK_IsHalted()  returns FALSE (0001ms, 0415ms total)
T2494 000:620 JLINK_IsHalted()  returns FALSE (0001ms, 0415ms total)
T2494 000:622 JLINK_IsHalted()  returns FALSE (0001ms, 0415ms total)
T2494 000:624 JLINK_IsHalted()  returns FALSE (0001ms, 0415ms total)
T2494 000:626 JLINK_IsHalted()  returns FALSE (0001ms, 0415ms total)
T2494 000:628 JLINK_IsHalted()  returns FALSE (0001ms, 0415ms total)
T2494 000:630 JLINK_IsHalted()  returns FALSE (0001ms, 0415ms total)
T2494 000:632 JLINK_IsHalted() -- CPU_ReadMem(2 bytes @ 0x20000000)  returns TRUE (0005ms, 0419ms total)
T2494 000:637 JLINK_ReadReg(R15 (PC))  returns 0x20000000 (0000ms, 0414ms total)
T2494 000:637 JLINK_ClrBPEx(BPHandle = 0x00000006)  returns 0x00 (0000ms, 0414ms total)
T2494 000:637 JLINK_ReadReg(R0)  returns 0x00000000 (0000ms, 0414ms total)
T2494 000:637 JLINK_WriteMem(0x20000164, 0x029C Bytes, ...) - Data: DD E9 0C 70 4D 46 00 26 83 46 20 78 00 07 0A D4 ... -- CPU_WriteMem(668 bytes @ 0x20000164)  returns 0x29C (0005ms, 0419ms total)
T2494 000:642 JLINK_WriteMem(0x20000400, 0x0164 Bytes, ...) - Data: F0 8F 00 20 30 60 00 F0 4D FA C0 F8 00 90 18 21 ... -- CPU_WriteMem(356 bytes @ 0x20000400)  returns 0x164 (0003ms, 0422ms total)
T2494 000:645 JLINK_WriteReg(R0, 0x08000800)  returns 0x00 (0000ms, 0422ms total)
T2494 000:645 JLINK_WriteReg(R1, 0x00000400)  returns 0x00 (0000ms, 0422ms total)
T2494 000:645 JLINK_WriteReg(R2, 0x20000164)  returns 0x00 (0000ms, 0422ms total)
T2494 000:645 JLINK_WriteReg(R3, 0x00000000)  returns 0x00 (0000ms, 0422ms total)
T2494 000:645 JLINK_WriteReg(R4, 0x00000000)  returns 0x00 (0000ms, 0422ms total)
T2494 000:645 JLINK_WriteReg(R5, 0x00000000)  returns 0x00 (0000ms, 0422ms total)
T2494 000:645 JLINK_WriteReg(R6, 0x00000000)  returns 0x00 (0000ms, 0422ms total)
T2494 000:645 JLINK_WriteReg(R7, 0x00000000)  returns 0x00 (0000ms, 0422ms total)
T2494 000:645 JLINK_WriteReg(R8, 0x00000000)  returns 0x00 (0000ms, 0422ms total)
T2494 000:645 JLINK_WriteReg(R9, 0x20000160)  returns 0x00 (0000ms, 0422ms total)
T2494 000:645 JLINK_WriteReg(R10, 0x00000000)  returns 0x00 (0000ms, 0422ms total)
T2494 000:645 JLINK_WriteReg(R11, 0x00000000)  returns 0x00 (0000ms, 0422ms total)
T2494 000:645 JLINK_WriteReg(R12, 0x00000000)  returns 0x00 (0000ms, 0422ms total)
T2494 000:645 JLINK_WriteReg(R13 (SP), 0x20001000)  returns 0x00 (0000ms, 0422ms total)
T2494 000:645 JLINK_WriteReg(R14, 0x20000001)  returns 0x00 (0000ms, 0422ms total)
T2494 000:645 JLINK_WriteReg(R15 (PC), 0x200000F4)  returns 0x00 (0000ms, 0422ms total)
T2494 000:645 JLINK_WriteReg(XPSR, 0x01000000)  returns 0x00 (0001ms, 0423ms total)
T2494 000:646 JLINK_WriteReg(MSP, 0x20001000)  returns 0x00 (0000ms, 0423ms total)
T2494 000:646 JLINK_WriteReg(PSP, 0x20001000)  returns 0x00 (0000ms, 0423ms total)
T2494 000:646 JLINK_WriteReg(CFBP, 0x00000000)  returns 0x00 (0000ms, 0423ms total)
T2494 000:646 JLINK_SetBPEx(Addr = 0x20000000, Type = 0xFFFFFFF2)  returns 0x00000007 (0000ms, 0423ms total)
T2494 000:646 JLINK_Go() -- CPU_ReadMem(4 bytes @ 0xE0001000) (0003ms, 0426ms total)
T2494 000:649 JLINK_IsHalted()  returns FALSE (0001ms, 0427ms total)
T2494 000:652 JLINK_IsHalted()  returns FALSE (0001ms, 0427ms total)
T2494 000:654 JLINK_IsHalted()  returns FALSE (0001ms, 0427ms total)
T2494 000:656 JLINK_IsHalted()  returns FALSE (0001ms, 0427ms total)
T2494 000:658 JLINK_IsHalted()  returns FALSE (0000ms, 0426ms total)
T2494 000:659 JLINK_IsHalted()  returns FALSE (0000ms, 0426ms total)
T2494 000:660 JLINK_IsHalted()  returns FALSE (0000ms, 0426ms total)
T2494 000:661 JLINK_IsHalted()  returns FALSE (0000ms, 0426ms total)
T2494 000:662 JLINK_IsHalted()  returns FALSE (0000ms, 0426ms total)
T2494 000:663 JLINK_IsHalted()  returns FALSE (0000ms, 0426ms total)
T2494 000:664 JLINK_IsHalted()  returns FALSE (0000ms, 0426ms total)
T2494 000:665 JLINK_IsHalted()  returns FALSE (0000ms, 0426ms total)
T2494 000:666 JLINK_IsHalted()  returns FALSE (0000ms, 0426ms total)
T2494 000:667 JLINK_IsHalted()  returns FALSE (0001ms, 0427ms total)
T2494 000:669 JLINK_IsHalted()  returns FALSE (0001ms, 0427ms total)
T2494 000:671 JLINK_IsHalted()  returns FALSE (0001ms, 0427ms total)
T2494 000:673 JLINK_IsHalted()  returns FALSE (0000ms, 0426ms total)
T2494 000:674 JLINK_IsHalted()  returns FALSE (0001ms, 0427ms total)
T2494 000:676 JLINK_IsHalted()  returns FALSE (0001ms, 0427ms total)
T2494 000:678 JLINK_IsHalted()  returns FALSE (0000ms, 0426ms total)
T2494 000:679 JLINK_IsHalted()  returns FALSE (0000ms, 0426ms total)
T2494 000:680 JLINK_IsHalted() -- CPU_ReadMem(2 bytes @ 0x20000000)  returns TRUE (0004ms, 0430ms total)
T2494 000:684 JLINK_ReadReg(R15 (PC))  returns 0x20000000 (0000ms, 0426ms total)
T2494 000:684 JLINK_ClrBPEx(BPHandle = 0x00000007)  returns 0x00 (0000ms, 0426ms total)
T2494 000:684 JLINK_ReadReg(R0)  returns 0x00000000 (0000ms, 0426ms total)
T2494 000:684 JLINK_WriteMem(0x20000164, 0x029C Bytes, ...) - Data: D0 E9 00 10 C6 E9 00 10 04 F0 00 41 08 43 70 60 ... -- CPU_WriteMem(668 bytes @ 0x20000164)  returns 0x29C (0005ms, 0431ms total)
T2494 000:689 JLINK_WriteMem(0x20000400, 0x0164 Bytes, ...) - Data: 8A 60 00 00 4E 5F 00 00 F1 D8 FF FF 0A A9 68 46 ... -- CPU_WriteMem(356 bytes @ 0x20000400)  returns 0x164 (0003ms, 0434ms total)
T2494 000:692 JLINK_WriteReg(R0, 0x08000C00)  returns 0x00 (0000ms, 0434ms total)
T2494 000:692 JLINK_WriteReg(R1, 0x00000400)  returns 0x00 (0000ms, 0434ms total)
T2494 000:692 JLINK_WriteReg(R2, 0x20000164)  returns 0x00 (0000ms, 0434ms total)
T2494 000:692 JLINK_WriteReg(R3, 0x00000000)  returns 0x00 (0000ms, 0434ms total)
T2494 000:692 JLINK_WriteReg(R4, 0x00000000)  returns 0x00 (0000ms, 0434ms total)
T2494 000:692 JLINK_WriteReg(R5, 0x00000000)  returns 0x00 (0000ms, 0434ms total)
T2494 000:692 JLINK_WriteReg(R6, 0x00000000)  returns 0x00 (0000ms, 0434ms total)
T2494 000:692 JLINK_WriteReg(R7, 0x00000000)  returns 0x00 (0000ms, 0434ms total)
T2494 000:692 JLINK_WriteReg(R8, 0x00000000)  returns 0x00 (0000ms, 0434ms total)
T2494 000:692 JLINK_WriteReg(R9, 0x20000160)  returns 0x00 (0000ms, 0434ms total)
T2494 000:692 JLINK_WriteReg(R10, 0x00000000)  returns 0x00 (0000ms, 0434ms total)
T2494 000:693 JLINK_WriteReg(R11, 0x00000000)  returns 0x00 (0000ms, 0435ms total)
T2494 000:693 JLINK_WriteReg(R12, 0x00000000)  returns 0x00 (0000ms, 0435ms total)
T2494 000:693 JLINK_WriteReg(R13 (SP), 0x20001000)  returns 0x00 (0000ms, 0435ms total)
T2494 000:693 JLINK_WriteReg(R14, 0x20000001)  returns 0x00 (0000ms, 0435ms total)
T2494 000:693 JLINK_WriteReg(R15 (PC), 0x200000F4)  returns 0x00 (0000ms, 0435ms total)
T2494 000:693 JLINK_WriteReg(XPSR, 0x01000000)  returns 0x00 (0000ms, 0435ms total)
T2494 000:693 JLINK_WriteReg(MSP, 0x20001000)  returns 0x00 (0000ms, 0435ms total)
T2494 000:693 JLINK_WriteReg(PSP, 0x20001000)  returns 0x00 (0000ms, 0435ms total)
T2494 000:693 JLINK_WriteReg(CFBP, 0x00000000)  returns 0x00 (0000ms, 0435ms total)
T2494 000:693 JLINK_SetBPEx(Addr = 0x20000000, Type = 0xFFFFFFF2)  returns 0x00000008 (0000ms, 0435ms total)
T2494 000:693 JLINK_Go() -- CPU_ReadMem(4 bytes @ 0xE0001000) (0003ms, 0438ms total)
T2494 000:696 JLINK_IsHalted()  returns FALSE (0001ms, 0439ms total)
T2494 000:698 JLINK_IsHalted()  returns FALSE (0000ms, 0438ms total)
T2494 000:699 JLINK_IsHalted()  returns FALSE (0000ms, 0438ms total)
T2494 000:701 JLINK_IsHalted()  returns FALSE (0001ms, 0439ms total)
T2494 000:703 JLINK_IsHalted()  returns FALSE (0001ms, 0439ms total)
T2494 000:705 JLINK_IsHalted()  returns FALSE (0001ms, 0439ms total)
T2494 000:707 JLINK_IsHalted()  returns FALSE (0001ms, 0439ms total)
T2494 000:709 JLINK_IsHalted()  returns FALSE (0001ms, 0439ms total)
T2494 000:711 JLINK_IsHalted()  returns FALSE (0001ms, 0439ms total)
T2494 000:713 JLINK_IsHalted()  returns FALSE (0001ms, 0439ms total)
T2494 000:715 JLINK_IsHalted()  returns FALSE (0001ms, 0439ms total)
T2494 000:718 JLINK_IsHalted()  returns FALSE (0001ms, 0439ms total)
T2494 000:720 JLINK_IsHalted()  returns FALSE (0001ms, 0439ms total)
T2494 000:722 JLINK_IsHalted()  returns FALSE (0001ms, 0439ms total)
T2494 000:724 JLINK_IsHalted()  returns FALSE (0001ms, 0439ms total)
T2494 000:726 JLINK_IsHalted()  returns FALSE (0001ms, 0439ms total)
T2494 000:728 JLINK_IsHalted() -- CPU_ReadMem(2 bytes @ 0x20000000)  returns TRUE (0005ms, 0443ms total)
T2494 000:733 JLINK_ReadReg(R15 (PC))  returns 0x20000000 (0000ms, 0438ms total)
T2494 000:733 JLINK_ClrBPEx(BPHandle = 0x00000008)  returns 0x00 (0000ms, 0438ms total)
T2494 000:733 JLINK_ReadReg(R0)  returns 0x00000000 (0000ms, 0438ms total)
T2494 000:733 JLINK_WriteMem(0x20000164, 0x029C Bytes, ...) - Data: 03 E0 08 B1 15 A5 00 E0 15 A5 21 F0 10 00 20 60 ... -- CPU_WriteMem(668 bytes @ 0x20000164)  returns 0x29C (0005ms, 0443ms total)
T2494 000:738 JLINK_WriteMem(0x20000400, 0x0164 Bytes, ...) - Data: 6F F0 01 00 AF F3 00 80 80 E0 07 E0 10 22 23 46 ... -- CPU_WriteMem(356 bytes @ 0x20000400)  returns 0x164 (0003ms, 0446ms total)
T2494 000:741 JLINK_WriteReg(R0, 0x08001000)  returns 0x00 (0000ms, 0446ms total)
T2494 000:741 JLINK_WriteReg(R1, 0x00000400)  returns 0x00 (0000ms, 0446ms total)
T2494 000:741 JLINK_WriteReg(R2, 0x20000164)  returns 0x00 (0000ms, 0446ms total)
T2494 000:741 JLINK_WriteReg(R3, 0x00000000)  returns 0x00 (0000ms, 0446ms total)
T2494 000:741 JLINK_WriteReg(R4, 0x00000000)  returns 0x00 (0000ms, 0446ms total)
T2494 000:741 JLINK_WriteReg(R5, 0x00000000)  returns 0x00 (0000ms, 0446ms total)
T2494 000:741 JLINK_WriteReg(R6, 0x00000000)  returns 0x00 (0000ms, 0446ms total)
T2494 000:741 JLINK_WriteReg(R7, 0x00000000)  returns 0x00 (0000ms, 0446ms total)
T2494 000:741 JLINK_WriteReg(R8, 0x00000000)  returns 0x00 (0000ms, 0446ms total)
T2494 000:741 JLINK_WriteReg(R9, 0x20000160)  returns 0x00 (0000ms, 0446ms total)
T2494 000:741 JLINK_WriteReg(R10, 0x00000000)  returns 0x00 (0000ms, 0446ms total)
T2494 000:741 JLINK_WriteReg(R11, 0x00000000)  returns 0x00 (0000ms, 0446ms total)
T2494 000:741 JLINK_WriteReg(R12, 0x00000000)  returns 0x00 (0000ms, 0446ms total)
T2494 000:741 JLINK_WriteReg(R13 (SP), 0x20001000)  returns 0x00 (0000ms, 0446ms total)
T2494 000:741 JLINK_WriteReg(R14, 0x20000001)  returns 0x00 (0000ms, 0446ms total)
T2494 000:741 JLINK_WriteReg(R15 (PC), 0x200000F4)  returns 0x00 (0000ms, 0446ms total)
T2494 000:741 JLINK_WriteReg(XPSR, 0x01000000)  returns 0x00 (0000ms, 0446ms total)
T2494 000:742 JLINK_WriteReg(MSP, 0x20001000)  returns 0x00 (0000ms, 0447ms total)
T2494 000:742 JLINK_WriteReg(PSP, 0x20001000)  returns 0x00 (0000ms, 0447ms total)
T2494 000:742 JLINK_WriteReg(CFBP, 0x00000000)  returns 0x00 (0000ms, 0447ms total)
T2494 000:742 JLINK_SetBPEx(Addr = 0x20000000, Type = 0xFFFFFFF2)  returns 0x00000009 (0000ms, 0447ms total)
T2494 000:742 JLINK_Go() -- CPU_ReadMem(4 bytes @ 0xE0001000) (0003ms, 0450ms total)
T2494 000:745 JLINK_IsHalted()  returns FALSE (0001ms, 0451ms total)
T2494 000:749 JLINK_IsHalted()  returns FALSE (0001ms, 0451ms total)
T2494 000:751 JLINK_IsHalted()  returns FALSE (0001ms, 0451ms total)
T2494 000:753 JLINK_IsHalted()  returns FALSE (0001ms, 0451ms total)
T2494 000:755 JLINK_IsHalted()  returns FALSE (0001ms, 0451ms total)
T2494 000:757 JLINK_IsHalted()  returns FALSE (0001ms, 0451ms total)
T2494 000:759 JLINK_IsHalted()  returns FALSE (0001ms, 0451ms total)
T2494 000:761 JLINK_IsHalted()  returns FALSE (0001ms, 0451ms total)
T2494 000:763 JLINK_IsHalted()  returns FALSE (0001ms, 0451ms total)
T2494 000:765 JLINK_IsHalted()  returns FALSE (0001ms, 0451ms total)
T2494 000:767 JLINK_IsHalted()  returns FALSE (0001ms, 0451ms total)
T2494 000:769 JLINK_IsHalted()  returns FALSE (0001ms, 0451ms total)
T2494 000:771 JLINK_IsHalted()  returns FALSE (0001ms, 0451ms total)
T2494 000:773 JLINK_IsHalted()  returns FALSE (0001ms, 0451ms total)
T2494 000:775 JLINK_IsHalted()  returns FALSE (0001ms, 0451ms total)
T2494 000:777 JLINK_IsHalted() -- CPU_ReadMem(2 bytes @ 0x20000000)  returns TRUE (0005ms, 0455ms total)
T2494 000:782 JLINK_ReadReg(R15 (PC))  returns 0x20000000 (0000ms, 0450ms total)
T2494 000:782 JLINK_ClrBPEx(BPHandle = 0x00000009)  returns 0x00 (0000ms, 0450ms total)
T2494 000:782 JLINK_ReadReg(R0)  returns 0x00000000 (0000ms, 0450ms total)
T2494 000:782 JLINK_WriteMem(0x20000164, 0x029C Bytes, ...) - Data: 37 21 90 FB F1 F2 90 FB F1 F5 A5 F1 80 05 01 FB ... -- CPU_WriteMem(668 bytes @ 0x20000164)  returns 0x29C (0005ms, 0455ms total)
T2494 000:787 JLINK_WriteMem(0x20000400, 0x0164 Bytes, ...) - Data: 04 D0 04 F0 40 41 09 00 02 D0 06 E0 03 98 98 E0 ... -- CPU_WriteMem(356 bytes @ 0x20000400)  returns 0x164 (0003ms, 0458ms total)
T2494 000:790 JLINK_WriteReg(R0, 0x08001400)  returns 0x00 (0000ms, 0458ms total)
T2494 000:790 JLINK_WriteReg(R1, 0x00000400)  returns 0x00 (0000ms, 0458ms total)
T2494 000:790 JLINK_WriteReg(R2, 0x20000164)  returns 0x00 (0000ms, 0458ms total)
T2494 000:790 JLINK_WriteReg(R3, 0x00000000)  returns 0x00 (0000ms, 0458ms total)
T2494 000:790 JLINK_WriteReg(R4, 0x00000000)  returns 0x00 (0000ms, 0458ms total)
T2494 000:790 JLINK_WriteReg(R5, 0x00000000)  returns 0x00 (0000ms, 0458ms total)
T2494 000:790 JLINK_WriteReg(R6, 0x00000000)  returns 0x00 (0000ms, 0458ms total)
T2494 000:790 JLINK_WriteReg(R7, 0x00000000)  returns 0x00 (0000ms, 0458ms total)
T2494 000:790 JLINK_WriteReg(R8, 0x00000000)  returns 0x00 (0000ms, 0458ms total)
T2494 000:790 JLINK_WriteReg(R9, 0x20000160)  returns 0x00 (0000ms, 0458ms total)
T2494 000:790 JLINK_WriteReg(R10, 0x00000000)  returns 0x00 (0000ms, 0458ms total)
T2494 000:790 JLINK_WriteReg(R11, 0x00000000)  returns 0x00 (0000ms, 0458ms total)
T2494 000:790 JLINK_WriteReg(R12, 0x00000000)  returns 0x00 (0000ms, 0458ms total)
T2494 000:790 JLINK_WriteReg(R13 (SP), 0x20001000)  returns 0x00 (0000ms, 0458ms total)
T2494 000:790 JLINK_WriteReg(R14, 0x20000001)  returns 0x00 (0000ms, 0458ms total)
T2494 000:790 JLINK_WriteReg(R15 (PC), 0x200000F4)  returns 0x00 (0000ms, 0458ms total)
T2494 000:790 JLINK_WriteReg(XPSR, 0x01000000)  returns 0x00 (0000ms, 0458ms total)
T2494 000:790 JLINK_WriteReg(MSP, 0x20001000)  returns 0x00 (0000ms, 0458ms total)
T2494 000:790 JLINK_WriteReg(PSP, 0x20001000)  returns 0x00 (0000ms, 0458ms total)
T2494 000:790 JLINK_WriteReg(CFBP, 0x00000000)  returns 0x00 (0000ms, 0458ms total)
T2494 000:790 JLINK_SetBPEx(Addr = 0x20000000, Type = 0xFFFFFFF2)  returns 0x0000000A (0000ms, 0458ms total)
T2494 000:790 JLINK_Go() -- CPU_ReadMem(4 bytes @ 0xE0001000) (0003ms, 0461ms total)
T2494 000:793 JLINK_IsHalted()  returns FALSE (0002ms, 0463ms total)
T2494 000:797 JLINK_IsHalted()  returns FALSE (0001ms, 0462ms total)
T2494 000:799 JLINK_IsHalted()  returns FALSE (0001ms, 0462ms total)
T2494 000:801 JLINK_IsHalted()  returns FALSE (0001ms, 0462ms total)
T2494 000:803 JLINK_IsHalted()  returns FALSE (0001ms, 0462ms total)
T2494 000:805 JLINK_IsHalted()  returns FALSE (0001ms, 0462ms total)
T2494 000:807 JLINK_IsHalted()  returns FALSE (0001ms, 0462ms total)
T2494 000:809 JLINK_IsHalted()  returns FALSE (0001ms, 0462ms total)
T2494 000:811 JLINK_IsHalted()  returns FALSE (0001ms, 0462ms total)
T2494 000:813 JLINK_IsHalted()  returns FALSE (0001ms, 0462ms total)
T2494 000:815 JLINK_IsHalted()  returns FALSE (0007ms, 0468ms total)
T2494 000:823 JLINK_IsHalted()  returns FALSE (0001ms, 0462ms total)
T2494 000:825 JLINK_IsHalted() -- CPU_ReadMem(2 bytes @ 0x20000000)  returns TRUE (0005ms, 0466ms total)
T2494 000:830 JLINK_ReadReg(R15 (PC))  returns 0x20000000 (0000ms, 0461ms total)
T2494 000:830 JLINK_ClrBPEx(BPHandle = 0x0000000A)  returns 0x00 (0000ms, 0461ms total)
T2494 000:830 JLINK_ReadReg(R0)  returns 0x00000000 (0000ms, 0461ms total)
T2494 000:830 JLINK_WriteMem(0x20000164, 0x029C Bytes, ...) - Data: 02 F0 E8 FE 15 98 10 F0 24 0F 0B D0 15 98 C0 07 ... -- CPU_WriteMem(668 bytes @ 0x20000164)  returns 0x29C (0005ms, 0466ms total)
T2494 000:835 JLINK_WriteMem(0x20000400, 0x0164 Bytes, ...) - Data: 04 0C 93 0F 04 BF 92 00 0C F1 02 0C D3 0F 04 BF ... -- CPU_WriteMem(356 bytes @ 0x20000400)  returns 0x164 (0003ms, 0469ms total)
T2494 000:838 JLINK_WriteReg(R0, 0x08001800)  returns 0x00 (0000ms, 0469ms total)
T2494 000:838 JLINK_WriteReg(R1, 0x00000400)  returns 0x00 (0000ms, 0469ms total)
T2494 000:838 JLINK_WriteReg(R2, 0x20000164)  returns 0x00 (0000ms, 0469ms total)
T2494 000:838 JLINK_WriteReg(R3, 0x00000000)  returns 0x00 (0000ms, 0469ms total)
T2494 000:838 JLINK_WriteReg(R4, 0x00000000)  returns 0x00 (0000ms, 0469ms total)
T2494 000:838 JLINK_WriteReg(R5, 0x00000000)  returns 0x00 (0000ms, 0469ms total)
T2494 000:838 JLINK_WriteReg(R6, 0x00000000)  returns 0x00 (0000ms, 0469ms total)
T2494 000:838 JLINK_WriteReg(R7, 0x00000000)  returns 0x00 (0000ms, 0469ms total)
T2494 000:838 JLINK_WriteReg(R8, 0x00000000)  returns 0x00 (0000ms, 0469ms total)
T2494 000:838 JLINK_WriteReg(R9, 0x20000160)  returns 0x00 (0000ms, 0469ms total)
T2494 000:838 JLINK_WriteReg(R10, 0x00000000)  returns 0x00 (0000ms, 0469ms total)
T2494 000:838 JLINK_WriteReg(R11, 0x00000000)  returns 0x00 (0000ms, 0469ms total)
T2494 000:838 JLINK_WriteReg(R12, 0x00000000)  returns 0x00 (0000ms, 0469ms total)
T2494 000:838 JLINK_WriteReg(R13 (SP), 0x20001000)  returns 0x00 (0000ms, 0469ms total)
T2494 000:838 JLINK_WriteReg(R14, 0x20000001)  returns 0x00 (0000ms, 0469ms total)
T2494 000:838 JLINK_WriteReg(R15 (PC), 0x200000F4)  returns 0x00 (0000ms, 0469ms total)
T2494 000:838 JLINK_WriteReg(XPSR, 0x01000000)  returns 0x00 (0000ms, 0469ms total)
T2494 000:838 JLINK_WriteReg(MSP, 0x20001000)  returns 0x00 (0000ms, 0469ms total)
T2494 000:838 JLINK_WriteReg(PSP, 0x20001000)  returns 0x00 (0000ms, 0469ms total)
T2494 000:838 JLINK_WriteReg(CFBP, 0x00000000)  returns 0x00 (0000ms, 0469ms total)
T2494 000:838 JLINK_SetBPEx(Addr = 0x20000000, Type = 0xFFFFFFF2)  returns 0x0000000B (0000ms, 0469ms total)
T2494 000:838 JLINK_Go() -- CPU_ReadMem(4 bytes @ 0xE0001000) (0004ms, 0473ms total)
T2494 000:842 JLINK_IsHalted()  returns FALSE (0001ms, 0474ms total)
T2494 000:844 JLINK_IsHalted()  returns FALSE (0000ms, 0473ms total)
T2494 000:845 JLINK_IsHalted()  returns FALSE (0000ms, 0473ms total)
T2494 000:846 JLINK_IsHalted()  returns FALSE (0000ms, 0473ms total)
T2494 000:847 JLINK_IsHalted()  returns FALSE (0000ms, 0473ms total)
T2494 000:848 JLINK_IsHalted()  returns FALSE (0000ms, 0473ms total)
T2494 000:849 JLINK_IsHalted()  returns FALSE (0000ms, 0473ms total)
T2494 000:850 JLINK_IsHalted()  returns FALSE (0000ms, 0473ms total)
T2494 000:851 JLINK_IsHalted()  returns FALSE (0000ms, 0473ms total)
T2494 000:852 JLINK_IsHalted()  returns FALSE (0000ms, 0473ms total)
T2494 000:853 JLINK_IsHalted()  returns FALSE (0000ms, 0473ms total)
T2494 000:854 JLINK_IsHalted()  returns FALSE (0000ms, 0473ms total)
T2494 000:855 JLINK_IsHalted()  returns FALSE (0001ms, 0474ms total)
T2494 000:858 JLINK_IsHalted()  returns FALSE (0001ms, 0474ms total)
T2494 000:861 JLINK_IsHalted()  returns FALSE (0001ms, 0474ms total)
T2494 000:863 JLINK_IsHalted()  returns FALSE (0000ms, 0473ms total)
T2494 000:864 JLINK_IsHalted()  returns FALSE (0000ms, 0473ms total)
T2494 000:865 JLINK_IsHalted()  returns FALSE (0000ms, 0473ms total)
T2494 000:866 JLINK_IsHalted()  returns FALSE (0000ms, 0473ms total)
T2494 000:867 JLINK_IsHalted()  returns FALSE (0000ms, 0473ms total)
T2494 000:868 JLINK_IsHalted()  returns FALSE (0000ms, 0473ms total)
T2494 000:869 JLINK_IsHalted()  returns FALSE (0000ms, 0473ms total)
T2494 000:870 JLINK_IsHalted()  returns FALSE (0000ms, 0473ms total)
T2494 000:871 JLINK_IsHalted()  returns FALSE (0000ms, 0473ms total)
T2494 000:872 JLINK_IsHalted()  returns FALSE (0000ms, 0473ms total)
T2494 000:873 JLINK_IsHalted() -- CPU_ReadMem(2 bytes @ 0x20000000)  returns TRUE (0004ms, 0477ms total)
T2494 000:877 JLINK_ReadReg(R15 (PC))  returns 0x20000000 (0000ms, 0473ms total)
T2494 000:877 JLINK_ClrBPEx(BPHandle = 0x0000000B)  returns 0x00 (0000ms, 0473ms total)
T2494 000:877 JLINK_ReadReg(R0)  returns 0x00000000 (0000ms, 0473ms total)
T2494 000:877 JLINK_WriteMem(0x20000164, 0x029C Bytes, ...) - Data: C7 42 B2 EB C7 42 61 EB 57 31 0C FB 0E F7 B0 EB ... -- CPU_WriteMem(668 bytes @ 0x20000164)  returns 0x29C (0006ms, 0479ms total)
T2494 000:883 JLINK_WriteMem(0x20000400, 0x0164 Bytes, ...) - Data: 00 D2 10 BD BA F1 00 0F 0A D0 1C B5 03 B4 4F F0 ... -- CPU_WriteMem(356 bytes @ 0x20000400)  returns 0x164 (0003ms, 0482ms total)
T2494 000:886 JLINK_WriteReg(R0, 0x08001C00)  returns 0x00 (0000ms, 0482ms total)
T2494 000:886 JLINK_WriteReg(R1, 0x00000400)  returns 0x00 (0000ms, 0482ms total)
T2494 000:886 JLINK_WriteReg(R2, 0x20000164)  returns 0x00 (0000ms, 0482ms total)
T2494 000:886 JLINK_WriteReg(R3, 0x00000000)  returns 0x00 (0000ms, 0482ms total)
T2494 000:886 JLINK_WriteReg(R4, 0x00000000)  returns 0x00 (0000ms, 0482ms total)
T2494 000:886 JLINK_WriteReg(R5, 0x00000000)  returns 0x00 (0000ms, 0482ms total)
T2494 000:886 JLINK_WriteReg(R6, 0x00000000)  returns 0x00 (0000ms, 0482ms total)
T2494 000:886 JLINK_WriteReg(R7, 0x00000000)  returns 0x00 (0000ms, 0482ms total)
T2494 000:886 JLINK_WriteReg(R8, 0x00000000)  returns 0x00 (0000ms, 0482ms total)
T2494 000:886 JLINK_WriteReg(R9, 0x20000160)  returns 0x00 (0000ms, 0482ms total)
T2494 000:886 JLINK_WriteReg(R10, 0x00000000)  returns 0x00 (0000ms, 0482ms total)
T2494 000:886 JLINK_WriteReg(R11, 0x00000000)  returns 0x00 (0000ms, 0482ms total)
T2494 000:886 JLINK_WriteReg(R12, 0x00000000)  returns 0x00 (0000ms, 0482ms total)
T2494 000:886 JLINK_WriteReg(R13 (SP), 0x20001000)  returns 0x00 (0000ms, 0482ms total)
T2494 000:886 JLINK_WriteReg(R14, 0x20000001)  returns 0x00 (0000ms, 0482ms total)
T2494 000:886 JLINK_WriteReg(R15 (PC), 0x200000F4)  returns 0x00 (0000ms, 0482ms total)
T2494 000:886 JLINK_WriteReg(XPSR, 0x01000000)  returns 0x00 (0000ms, 0482ms total)
T2494 000:886 JLINK_WriteReg(MSP, 0x20001000)  returns 0x00 (0000ms, 0482ms total)
T2494 000:886 JLINK_WriteReg(PSP, 0x20001000)  returns 0x00 (0000ms, 0482ms total)
T2494 000:886 JLINK_WriteReg(CFBP, 0x00000000)  returns 0x00 (0000ms, 0482ms total)
T2494 000:886 JLINK_SetBPEx(Addr = 0x20000000, Type = 0xFFFFFFF2)  returns 0x0000000C (0000ms, 0482ms total)
T2494 000:886 JLINK_Go() -- CPU_ReadMem(4 bytes @ 0xE0001000) (0005ms, 0487ms total)
T2494 000:891 JLINK_IsHalted()  returns FALSE (0001ms, 0488ms total)
T2494 000:893 JLINK_IsHalted()  returns FALSE (0001ms, 0488ms total)
T2494 000:895 JLINK_IsHalted()  returns FALSE (0001ms, 0488ms total)
T2494 000:897 JLINK_IsHalted()  returns FALSE (0001ms, 0488ms total)
T2494 000:899 JLINK_IsHalted()  returns FALSE (0001ms, 0488ms total)
T2494 000:901 JLINK_IsHalted()  returns FALSE (0001ms, 0488ms total)
T2494 000:903 JLINK_IsHalted()  returns FALSE (0001ms, 0488ms total)
T2494 000:905 JLINK_IsHalted()  returns FALSE (0001ms, 0488ms total)
T2494 000:907 JLINK_IsHalted()  returns FALSE (0001ms, 0488ms total)
T2494 000:909 JLINK_IsHalted()  returns FALSE (0001ms, 0488ms total)
T2494 000:911 JLINK_IsHalted()  returns FALSE (0001ms, 0488ms total)
T2494 000:913 JLINK_IsHalted()  returns FALSE (0001ms, 0488ms total)
T2494 000:915 JLINK_IsHalted()  returns FALSE (0001ms, 0488ms total)
T2494 000:917 JLINK_IsHalted()  returns FALSE (0001ms, 0488ms total)
T2494 000:919 JLINK_IsHalted()  returns FALSE (0001ms, 0488ms total)
T2494 000:921 JLINK_IsHalted() -- CPU_ReadMem(2 bytes @ 0x20000000)  returns TRUE (0005ms, 0492ms total)
T2494 000:926 JLINK_ReadReg(R15 (PC))  returns 0x20000000 (0000ms, 0487ms total)
T2494 000:926 JLINK_ClrBPEx(BPHandle = 0x0000000C)  returns 0x00 (0000ms, 0487ms total)
T2494 000:926 JLINK_ReadReg(R0)  returns 0x00000000 (0000ms, 0487ms total)
T2494 000:926 JLINK_WriteMem(0x20000164, 0x029C Bytes, ...) - Data: 03 D5 FF F7 8E FD FF F7 29 FF F0 BC BD E8 00 8C ... -- CPU_WriteMem(668 bytes @ 0x20000164)  returns 0x29C (0005ms, 0492ms total)
T2494 000:931 JLINK_WriteMem(0x20000400, 0x0164 Bytes, ...) - Data: 92 18 41 EB 01 01 A3 F1 01 03 70 47 04 E0 10 F8 ... -- CPU_WriteMem(356 bytes @ 0x20000400)  returns 0x164 (0003ms, 0495ms total)
T2494 000:934 JLINK_WriteReg(R0, 0x08002000)  returns 0x00 (0000ms, 0495ms total)
T2494 000:934 JLINK_WriteReg(R1, 0x00000400)  returns 0x00 (0000ms, 0495ms total)
T2494 000:934 JLINK_WriteReg(R2, 0x20000164)  returns 0x00 (0000ms, 0495ms total)
T2494 000:934 JLINK_WriteReg(R3, 0x00000000)  returns 0x00 (0000ms, 0495ms total)
T2494 000:934 JLINK_WriteReg(R4, 0x00000000)  returns 0x00 (0000ms, 0495ms total)
T2494 000:934 JLINK_WriteReg(R5, 0x00000000)  returns 0x00 (0000ms, 0495ms total)
T2494 000:934 JLINK_WriteReg(R6, 0x00000000)  returns 0x00 (0000ms, 0495ms total)
T2494 000:934 JLINK_WriteReg(R7, 0x00000000)  returns 0x00 (0000ms, 0495ms total)
T2494 000:934 JLINK_WriteReg(R8, 0x00000000)  returns 0x00 (0000ms, 0495ms total)
T2494 000:934 JLINK_WriteReg(R9, 0x20000160)  returns 0x00 (0000ms, 0495ms total)
T2494 000:934 JLINK_WriteReg(R10, 0x00000000)  returns 0x00 (0000ms, 0495ms total)
T2494 000:934 JLINK_WriteReg(R11, 0x00000000)  returns 0x00 (0000ms, 0495ms total)
T2494 000:934 JLINK_WriteReg(R12, 0x00000000)  returns 0x00 (0000ms, 0495ms total)
